T3AC0 1782:601.956   SEGGER J-Link V6.80b Log File
T3AC0 1782:602.050   DLL Compiled: Jun  5 2020 17:40:22
T3AC0 1782:602.073   Logging started @ 2020-07-11 06:46
T3AC0 1782:602.099 JLINK_SetWarnOutHandler(...)
T3AC0 1782:602.121 - 0.031ms
T3AC0 1782:602.145 JLINK_OpenEx(...)
T3AC0 1782:604.832   Firmware: J-Link OB-SAM3U128 V3 compiled Apr 16 2020 17:20:41
T3AC0 1782:606.744   Hardware: V3.00
T3AC0 1782:606.796   S/N: 483045707
T3AC0 1782:606.830   OEM: SEGGER
T3AC0 1782:606.861   Feature(s): None
T3AC0 1782:607.806   TELNET listener socket opened on port 19021
T3AC0 1782:612.769   Device "AMA3B1KK-KBR" selected.
T3AC0 1782:614.380   WEBSRV Starting webserver
T3AC0 1782:616.112   WEBSRV Webserver running on local port 19080
T3AC0 1782:616.155 - 14.021ms returns "O.K."
T3AC0 1782:616.189 JLINK_GetEmuCaps()
T3AC0 1782:616.211 - 0.032ms returns 0xB9FE5BBF
T3AC0 1782:616.236 JLINK_TIF_GetAvailable(...)
T3AC0 1782:616.419 - 0.197ms
T3AC0 1782:616.450 JLINK_SetErrorOutHandler(...)
T3AC0 1782:616.471 - 0.031ms
T3AC0 1782:616.501 JLINK_ExecCommand("ProjectFile = "F:\ambiq711\AmbiqSuite-Rel2.2.0\boards\apollo3_evb\examples\mspi_quad_example\keil\JLinkSettings.ini"", ...). 
T3AC0 1782:620.218   Device "AMA3B1KK-KBR" selected.
T3AC0 1782:620.937 - 4.455ms returns 0x00
T3AC0 1782:621.231 JLINK_ExecCommand("Device = AMA3B1KK-KBR", ...). 
T3AC0 1782:621.948   Device "AMA3B1KK-KBR" selected.
T3AC0 1782:622.592 - 1.346ms returns 0x00
T3AC0 1782:622.624 JLINK_ExecCommand("DisableConnectionTimeout", ...). 
T3AC0 1782:622.653 - 0.017ms returns 0x01
T3AC0 1782:622.685 JLINK_GetHardwareVersion()
T3AC0 1782:622.706 - 0.032ms returns 0x7530
T3AC0 1782:622.730 JLINK_GetDLLVersion()  returns 68002
T3AC0 1782:622.756 JLINK_GetFirmwareString(...)
T3AC0 1782:622.777 - 0.031ms
T3AC0 1782:622.823 JLINK_GetDLLVersion()  returns 68002
T3AC0 1782:622.848 JLINK_GetCompileDateTime()
T3AC0 1782:622.869 - 0.031ms
T3AC0 1782:622.898 JLINK_GetFirmwareString(...)
T3AC0 1782:622.919 - 0.032ms
T3AC0 1782:622.947 JLINK_GetHardwareVersion()
T3AC0 1782:622.968 - 0.031ms returns 0x7530
T3AC0 1782:623.011 JLINK_TIF_Select(JLINKARM_TIF_SWD)
T3AC0 1782:623.900 - 0.913ms returns 0x00
T3AC0 1782:623.950 JLINK_SetSpeed(1000)
T3AC0 1782:624.016 - 0.080ms
T3AC0 1782:624.048 JLINK_GetId()
T3AC0 1782:624.837   Found SW-DP with ID 0x2BA01477
T3AC0 1782:627.681   DPIDR: 0x2BA01477
T3AC0 1782:627.895   Scanning AP map to find all available APs
T3AC0 1782:628.684   AP[1]: Stopped AP scan as end of AP map has been reached
T3AC0 1782:628.748   AP[0]: AHB-AP (IDR: 0x24770011)
T3AC0 1782:628.785   Iterating through AP map to find AHB-AP to use
T3AC0 1782:629.834   AP[0]: Core found
T3AC0 1782:630.017   AP[0]: AHB-AP ROM base: 0xE00FF000
T3AC0 1782:630.536   CPUID register: 0x410FC241. Implementer code: 0x41 (ARM)
T3AC0 1782:630.581   Found Cortex-M4 r0p1, Little endian.
T3AC0 1782:732.134   -- Max. mem block: 0x00002AF8
T3AC0 1782:732.313   CPU_ReadMem(4 bytes @ 0xE000EDF0)
T3AC0 1782:733.191   CPU_WriteMem(4 bytes @ 0xE000EDF0)
T3AC0 1782:733.942   CPU_ReadMem(4 bytes @ 0xE0002000)
T3AC0 1782:734.732   FPUnit: 6 code (BP) slots and 2 literal slots
T3AC0 1782:734.863   CPU_ReadMem(4 bytes @ 0xE000EDFC)
T3AC0 1782:735.570   CPU_WriteMem(4 bytes @ 0xE000EDFC)
T3AC0 1782:736.331   CPU_ReadMem(4 bytes @ 0xE0001000)
T3AC0 1782:737.105   CPU_WriteMem(4 bytes @ 0xE0001000)
T3AC0 1782:737.832   CPU_ReadMem(4 bytes @ 0xE000ED88)
T3AC0 1782:738.572   CPU_WriteMem(4 bytes @ 0xE000ED88)
T3AC0 1782:739.311   CPU_ReadMem(4 bytes @ 0xE000ED88)
T3AC0 1782:740.063   CPU_WriteMem(4 bytes @ 0xE000ED88)
T3AC0 1782:740.824   CoreSight components:
T3AC0 1782:740.967   ROMTbl[0] @ E00FF000
T3AC0 1782:741.088   CPU_ReadMem(64 bytes @ 0xE00FF000)
T3AC0 1782:742.554   CPU_ReadMem(32 bytes @ 0xE000EFE0)
T3AC0 1782:743.742   ROMTbl[0][0]: E000E000, CID: B105E00D, PID: 000BB00C SCS-M7
T3AC0 1782:743.874   CPU_ReadMem(32 bytes @ 0xE0001FE0)
T3AC0 1782:745.061   ROMTbl[0][1]: E0001000, CID: B105E00D, PID: 003BB002 DWT
T3AC0 1782:745.196   CPU_ReadMem(32 bytes @ 0xE0002FE0)
T3AC0 1782:746.520   ROMTbl[0][2]: E0002000, CID: B105E00D, PID: 002BB003 FPB
T3AC0 1782:746.652   CPU_ReadMem(32 bytes @ 0xE0000FE0)
T3AC0 1782:747.740   ROMTbl[0][3]: E0000000, CID: B105E00D, PID: 003BB001 ITM
T3AC0 1782:747.870   CPU_ReadMem(32 bytes @ 0xE0040FE0)
T3AC0 1782:748.973   ROMTbl[0][4]: E0040000, CID: B105900D, PID: 000BB9A1 TPIU
T3AC0 1782:749.449 - 125.451ms   returns 0x2BA01477
T3AC0 1782:749.568 JLINK_GetDLLVersion()  returns 68002
T3AC0 1782:749.670 JLINK_CORE_GetFound()
T3AC0 1782:749.760 - 0.129ms returns 0xE0000FF
T3AC0 1782:749.853 JLINK_GetDebugInfo(0x100 = JLINKARM_ROM_TABLE_ADDR_INDEX)
T3AC0 1782:749.936   Value=0xE00FF000
T3AC0 1782:750.051 - 0.237ms returns 0x00
T3AC0 1782:750.298 JLINK_GetDebugInfo(0x100 = JLINKARM_ROM_TABLE_ADDR_INDEX)
T3AC0 1782:750.391   Value=0xE00FF000
T3AC0 1782:750.507 - 0.253ms returns 0x00
T3AC0 1782:750.597 JLINK_GetDebugInfo(0x101 = JLINKARM_DEBUG_INFO_ETM_ADDR_INDEX)
T3AC0 1782:750.676   Value=0x00000000
T3AC0 1782:750.790 - 0.232ms returns 0x00
T3AC0 1782:750.884   JLINK_ReadMemEx(0xE0041FF0, 0x0010 Bytes, ..., Flags = 0x02000004)
T3AC0 1782:751.019   CPU_ReadMem(16 bytes @ 0xE0041FF0)
T3AC0 1782:751.898   Data:  00 00 00 00 00 00 00 00 00 00 00 00 00 00 00 00
T3AC0 1782:752.023 - 1.181ms returns 0x10
T3AC0 1782:752.115 JLINK_GetDebugInfo(0x102 = JLINKARM_DEBUG_INFO_MTB_ADDR_INDEX)
T3AC0 1782:752.196   Value=0x00000000
T3AC0 1782:752.310 - 0.233ms returns 0x00
T3AC0 1782:752.394 JLINK_GetDebugInfo(0x103 = JLINKARM_DEBUG_INFO_TPIU_ADDR_INDEX)
T3AC0 1782:752.473   Value=0xE0040000
T3AC0 1782:752.657 - 0.303ms returns 0x00
T3AC0 1782:752.748 JLINK_GetDebugInfo(0x104 = JLINKARM_DEBUG_INFO_ITM_ADDR_INDEX)
T3AC0 1782:752.830   Value=0xE0000000
T3AC0 1782:752.944 - 0.235ms returns 0x00
T3AC0 1782:753.031 JLINK_GetDebugInfo(0x105 = JLINKARM_DEBUG_INFO_DWT_ADDR_INDEX)
T3AC0 1782:753.116   Value=0xE0001000
T3AC0 1782:753.230 - 0.238ms returns 0x00
T3AC0 1782:753.314 JLINK_GetDebugInfo(0x106 = JLINKARM_DEBUG_INFO_FPB_ADDR_INDEX)
T3AC0 1782:753.393   Value=0xE0002000
T3AC0 1782:753.507 - 0.235ms returns 0x00
T3AC0 1782:753.595 JLINK_GetDebugInfo(0x107 = JLINKARM_DEBUG_INFO_NVIC_ADDR_INDEX)
T3AC0 1782:753.673   Value=0xE000E000
T3AC0 1782:753.787 - 0.231ms returns 0x00
T3AC0 1782:753.871 JLINK_GetDebugInfo(0x10C = JLINKARM_DEBUG_INFO_DBG_ADDR_INDEX)
T3AC0 1782:753.950   Value=0xE000EDF0
T3AC0 1782:754.064 - 0.231ms returns 0x00
T3AC0 1782:754.150 JLINK_GetDebugInfo(0x01 = Unknown)
T3AC0 1782:754.234   Value=0x00000001
T3AC0 1782:754.349 - 0.237ms returns 0x00
T3AC0 1782:754.439 JLINK_ReadMemU32(0xE000ED00, 0x0001 Items, ...)
T3AC0 1782:754.536   CPU_ReadMem(4 bytes @ 0xE000ED00)
T3AC0 1782:755.249   Data:  41 C2 0F 41
T3AC0 1782:755.376   Debug reg: CPUID
T3AC0 1782:755.490 - 1.094ms returns 1
T3AC0 1782:755.586 JLINK_GetDebugInfo(0x10F = JLINKARM_DEBUG_INFO_HAS_CORTEX_M_SECURITY_EXT_INDEX)
T3AC0 1782:755.666   Value=0x00000000
T3AC0 1782:755.780 - 0.233ms returns 0x00
T3AC0 1782:755.879 JLINK_SetResetType(JLINKARM_CM3_RESET_TYPE_NORMAL)
T3AC0 1782:755.966 - 0.126ms returns JLINKARM_CM3_RESET_TYPE_NORMAL
T3AC0 1782:756.053 JLINK_Reset()
T3AC0 1782:756.175   ResetTarget() start
T3AC0 1782:756.294    J-Link Script File: Executing ResetTarget()
T3AC0 1782:760.579   JDEC PID 0x000000CF
T3AC0 1782:760.725   Ambiq Apollo3 ResetTarget
T3AC0 1782:761.553   Bootldr = 0x04000000
T3AC0 1782:761.697   Secure Part.
T3AC0 1782:761.831   Secure Chip. Bootloader needs to run which will then halt when finish.
T3AC0 1782:764.648   CPU halted after reset. TryCount = 0x00000000
T3AC0 1782:865.601   ResetTarget() end
T3AC0 1782:872.643   CPU_WriteMem(4 bytes @ 0xE0002000)
T3AC0 1782:873.396   CPU_ReadMem(4 bytes @ 0xE000EDFC)
T3AC0 1782:874.145   CPU_WriteMem(4 bytes @ 0xE000EDFC)
T3AC0 1782:874.873   CPU_ReadMem(4 bytes @ 0xE0001000)
T3AC0 1782:875.577 - 119.574ms
T3AC0 1782:875.862 JLINK_ReadReg(R15 (PC))
T3AC0 1782:875.960 - 0.140ms returns 0x000008D0
T3AC0 1782:876.048 JLINK_ReadReg(XPSR)
T3AC0 1782:876.288 - 0.290ms returns 0x81000000
T3AC0 1782:876.392 JLINK_Halt()
T3AC0 1782:876.548 - 0.213ms returns 0x00
T3AC0 1782:876.661 JLINK_ReadMemU32(0xE000EDF0, 0x0001 Items, ...)
T3AC0 1782:876.761   CPU_ReadMem(4 bytes @ 0xE000EDF0)
T3AC0 1782:877.656   Data:  03 00 03 00
T3AC0 1782:877.786   Debug reg: DHCSR
T3AC0 1782:877.901 - 1.280ms returns 1
T3AC0 1782:878.008 JLINK_WriteU32(0xE000EDF0, 0xA05F0003)
T3AC0 1782:878.091   Debug reg: DHCSR
T3AC0 1782:878.229   CPU_WriteMem(4 bytes @ 0xE000EDF0)
T3AC0 1782:879.037 - 1.083ms returns 0
T3AC0 1782:879.145 JLINK_WriteU32(0xE000EDFC, 0x01000000)
T3AC0 1782:879.227   Debug reg: DEMCR
T3AC0 1782:879.370   CPU_WriteMem(4 bytes @ 0xE000EDFC)
T3AC0 1782:880.103 - 1.009ms returns 0
T3AC0 1782:880.294 JLINK_GetHWStatus(...)
T3AC0 1782:880.679 - 0.435ms returns 0x00
T3AC0 1782:880.850 JLINK_GetNumBPUnits(Type = 0xFFFFFF00)
T3AC0 1782:880.935 - 0.124ms returns 0x06
T3AC0 1782:881.020 JLINK_GetNumBPUnits(Type = 0xF0)
T3AC0 1782:881.098 - 0.117ms returns 0x2000
T3AC0 1782:881.185 JLINK_GetNumWPUnits()
T3AC0 1782:881.263 - 0.117ms returns 0x04
T3AC0 1782:881.393 JLINK_GetSpeed()
T3AC0 1782:881.475 - 0.122ms returns 0x3E8
T3AC0 1782:881.588 JLINK_ReadMemU32(0xE000E004, 0x0001 Items, ...)
T3AC0 1782:881.692   CPU_ReadMem(4 bytes @ 0xE000E004)
T3AC0 1782:882.416   Data:  00 00 00 00
T3AC0 1782:882.578 - 1.029ms returns 1
T3AC0 1782:882.669 JLINK_ReadMemU32(0xE000E004, 0x0001 Items, ...)
T3AC0 1782:882.761   CPU_ReadMem(4 bytes @ 0xE000E004)
T3AC0 1782:883.457   Data:  00 00 00 00
T3AC0 1782:883.583 - 0.953ms returns 1
T3AC0 1782:883.681 JLINK_WriteMemEx(0xE0001000, 0x001C Bytes, ..., Flags = 0x02000004)
T3AC0 1782:883.764   Data:  01 00 00 00 00 00 00 00 00 00 00 00 00 00 00 00 ...
T3AC0 1782:885.445   CPU_WriteMem(28 bytes @ 0xE0001000)
T3AC0 1782:886.478 - 2.852ms returns 0x1C
T3AC0 1782:886.644 JLINK_ReadReg(R15 (PC))
T3AC0 1782:886.732 - 0.129ms returns 0x000008D0
T3AC0 1782:886.819 JLINK_ReadReg(XPSR)
T3AC0 1782:886.899 - 0.119ms returns 0x81000000
T3AC0 1782:903.289 JLINK_SWO_Control(JLINKARM_SWO_CMD_GET_SPEED_INFO, ...)
T3AC0 1782:903.769 - 0.537ms returns 0x00
T3AC0 1782:903.881 JLINK_SWO_Control(JLINKARM_SWO_CMD_STOP, ...)
T3AC0 1782:903.969 - 0.128ms returns 0x00
T3AC0 1782:904.056 JLINK_SWO_Control(JLINKARM_SWO_CMD_START, ...)
T3AC0 1782:904.596    -- UART
T3AC0 1782:904.726    -- 1000000bps
T3AC0 1782:905.901 - 1.897ms returns 0x00
T3AC0 1782:906.008 JLINK_WriteU32(0xE0040004, 0x00000001)
T3AC0 1782:906.104   Debug reg: TPIU_CSPSR
T3AC0 1782:906.248   CPU_WriteMem(4 bytes @ 0xE0040004)
T3AC0 1782:907.913 - 2.013ms returns 0
T3AC0 1782:908.113 JLINK_WriteU32(0xE0040010, 0x00000002)
T3AC0 1782:908.354   Debug reg: TPIU_ACPR
T3AC0 1782:908.499 - 0.427ms returns 0
T3AC0 1782:908.589 JLINK_WriteU32(0xE00400F0, 0x00000002)
T3AC0 1782:908.670   Debug reg: TPIU_SPPR
T3AC0 1782:908.792 - 0.242ms returns 0
T3AC0 1782:908.877 JLINK_WriteU32(0xE0040304, 0x00000000)
T3AC0 1782:908.956   Debug reg: TPIU_FFCR
T3AC0 1782:909.081 - 0.251ms returns 0
T3AC0 1782:909.175 JLINK_WriteU32(0xE0000FB0, 0xC5ACCE55)
T3AC0 1782:909.254   Debug reg: ITM_LOCKACCESS
T3AC0 1782:909.384   CPU_WriteMem(4 bytes @ 0xE0000FB0)
T3AC0 1782:910.225 - 1.103ms returns 0
T3AC0 1782:910.332 JLINK_WriteU32(0xE0000E80, 0x0001000D)
T3AC0 1782:910.412   Debug reg: ITM_TCR
T3AC0 1782:910.545 - 0.253ms returns 0
T3AC0 1782:910.631 JLINK_WriteU32(0xE0000E00, 0x00000001)
T3AC0 1782:910.709   Debug reg: ITM_TER
T3AC0 1782:910.829 - 0.237ms returns 0
T3AC0 1782:910.914 JLINK_WriteU32(0xE0000E40, 0x00000000)
T3AC0 1782:910.996   Debug reg: ITM_TPR
T3AC0 1782:911.122 - 0.248ms returns 0
T3AC0 1782:911.207 JLINK_WriteU32(0xE0001000, 0x0000061F)
T3AC0 1782:911.286   Debug reg: DWT_CTRL
T3AC0 1782:911.405 - 0.240ms returns 0
T3AC0 1782:964.474   JLINK_ReadMemEx(0xE0001004, 0x0004 Bytes, ..., Flags = 0x02000000)
T3AC0 1782:964.584   Data:  00 00 00 00
T3AC0 1782:964.650   Debug reg: DWT_CYCCNT
T3AC0 1782:964.712 - 0.261ms returns 0x04
T3AC0 1784:418.070   JLINK_ReadMemEx(0x00000000, 0x003C Bytes, ..., Flags = 0x02000000)
T3AC0 1784:418.203   CPU_ReadMem(60 bytes @ 0x00000000)
T3AC0 1784:418.994   Data:  AA AA AA AA AA AA AA AA AA AA AA AA AA AA AA AA ...
T3AC0 1784:419.034 - 0.975ms returns 0xFFFFFFFF
T3AC0 1784:419.073   JLINK_ReadMemEx(0x00000002, 0x0002 Bytes, ..., Flags = 0x02000000)
T3AC0 1784:419.114   CPU_ReadMem(2 bytes @ 0x00000002)
T3AC0 1784:419.600   Data:  00 A3
T3AC0 1784:419.634 - 0.572ms returns 0x02
T3AC0 1784:419.660   JLINK_ReadMemEx(0x00000004, 0x003C Bytes, ..., Flags = 0x02000000)
T3AC0 1784:419.695   CPU_ReadMem(60 bytes @ 0x00000004)
T3AC0 1784:420.410   Data:  AA AA AA AA AA AA AA AA AA AA AA AA AA AA AA AA ...
T3AC0 1784:420.443 - 0.794ms returns 0xFFFFFFFF
T3AC0 1784:420.473   JLINK_ReadMemEx(0x00000004, 0x003C Bytes, ..., Flags = 0x02000000)
T3AC0 1784:420.508   CPU_ReadMem(60 bytes @ 0x00000004)
T3AC0 1784:421.243   Data:  AA AA AA AA AA AA AA AA AA AA AA AA AA AA AA AA ...
T3AC0 1784:421.279 - 0.817ms returns 0xFFFFFFFF
T3AC0 1784:421.306   JLINK_ReadMemEx(0x00000004, 0x003C Bytes, ..., Flags = 0x02000000)
T3AC0 1784:421.341   CPU_ReadMem(60 bytes @ 0x00000004)
T3AC0 1784:422.052   Data:  AA AA AA AA AA AA AA AA AA AA AA AA AA AA AA AA ...
T3AC0 1784:422.086 - 0.790ms returns 0xFFFFFFFF
T3AC0 1784:422.113   JLINK_ReadMemEx(0x00000004, 0x003C Bytes, ..., Flags = 0x02000000)
T3AC0 1784:422.148   CPU_ReadMem(60 bytes @ 0x00000004)
T3AC0 1784:422.867   Data:  AA AA AA AA AA AA AA AA AA AA AA AA AA AA AA AA ...
T3AC0 1784:422.900 - 0.798ms returns 0xFFFFFFFF
T3AC0 1784:422.929   JLINK_ReadMemEx(0x00000004, 0x003C Bytes, ..., Flags = 0x02000000)
T3AC0 1784:422.967   CPU_ReadMem(60 bytes @ 0x00000004)
T3AC0 1784:423.837   Data:  AA AA AA AA AA AA AA AA AA AA AA AA AA AA AA AA ...
T3AC0 1784:423.872 - 0.954ms returns 0xFFFFFFFF
T3AC0 1784:423.900   JLINK_ReadMemEx(0x00000004, 0x003C Bytes, ..., Flags = 0x02000000)
T3AC0 1784:423.950   CPU_ReadMem(60 bytes @ 0x00000004)
T3AC0 1784:424.763   Data:  AA AA AA AA AA AA AA AA AA AA AA AA AA AA AA AA ...
T3AC0 1784:424.797 - 0.908ms returns 0xFFFFFFFF
T3AC0 1784:424.826   JLINK_ReadMemEx(0x00000006, 0x0002 Bytes, ..., Flags = 0x02000000)
T3AC0 1784:424.861   CPU_ReadMem(2 bytes @ 0x00000006)
T3AC0 1784:425.345   Data:  3F 73
T3AC0 1784:425.382 - 0.567ms returns 0x02
T3AC0 1784:425.408   JLINK_ReadMemEx(0x00000008, 0x003C Bytes, ..., Flags = 0x02000000)
T3AC0 1784:425.443   CPU_ReadMem(60 bytes @ 0x00000008)
T3AC0 1784:426.097   Data:  AA AA AA AA AA AA AA AA AA AA AA AA AA AA AA AA ...
T3AC0 1784:426.131 - 0.734ms returns 0xFFFFFFFF
T3AC0 1784:426.161   JLINK_ReadMemEx(0x00000008, 0x003C Bytes, ..., Flags = 0x02000000)
T3AC0 1784:426.196   CPU_ReadMem(60 bytes @ 0x00000008)
T3AC0 1784:426.869   Data:  AA AA AA AA AA AA AA AA AA AA AA AA AA AA AA AA ...
T3AC0 1784:426.904 - 0.753ms returns 0xFFFFFFFF
T3AC0 1784:426.930   JLINK_ReadMemEx(0x00000008, 0x003C Bytes, ..., Flags = 0x02000000)
T3AC0 1784:426.968   CPU_ReadMem(60 bytes @ 0x00000008)
T3AC0 1784:427.638   Data:  AA AA AA AA AA AA AA AA AA AA AA AA AA AA AA AA ...
T3AC0 1784:427.673 - 0.753ms returns 0xFFFFFFFF
T3AC0 1784:427.902   JLINK_ReadMemEx(0x00000008, 0x003C Bytes, ..., Flags = 0x02000000)
T3AC0 1784:427.941   CPU_ReadMem(60 bytes @ 0x00000008)
T3AC0 1784:428.596   Data:  AA AA AA AA AA AA AA AA AA AA AA AA AA AA AA AA ...
T3AC0 1784:428.630 - 0.739ms returns 0xFFFFFFFF
T3AC0 1784:428.660   JLINK_ReadMemEx(0x00000008, 0x003C Bytes, ..., Flags = 0x02000000)
T3AC0 1784:428.695   CPU_ReadMem(60 bytes @ 0x00000008)
T3AC0 1784:429.346   Data:  AA AA AA AA AA AA AA AA AA AA AA AA AA AA AA AA ...
T3AC0 1784:429.382 - 0.733ms returns 0xFFFFFFFF
T3AC0 1784:429.409   JLINK_ReadMemEx(0x00000008, 0x003C Bytes, ..., Flags = 0x02000000)
T3AC0 1784:429.444   CPU_ReadMem(60 bytes @ 0x00000008)
T3AC0 1784:430.097   Data:  AA AA AA AA AA AA AA AA AA AA AA AA AA AA AA AA ...
T3AC0 1784:430.131 - 0.733ms returns 0xFFFFFFFF
T3AC0 1784:430.158   JLINK_ReadMemEx(0x0000000A, 0x0002 Bytes, ..., Flags = 0x02000000)
T3AC0 1784:430.200   CPU_ReadMem(2 bytes @ 0x0000000A)
T3AC0 1784:430.753   Data:  AA AA
T3AC0 1784:430.787 - 0.639ms returns 0xFFFFFFFF
T3AC0 1784:430.816   JLINK_ReadMemEx(0x0000000A, 0x0002 Bytes, ..., Flags = 0x02000000)
T3AC0 1784:430.852   CPU_ReadMem(2 bytes @ 0x0000000A)
T3AC0 1784:431.397   Data:  AA AA
T3AC0 1784:431.431 - 0.625ms returns 0xFFFFFFFF
T3AC0 1784:431.457   JLINK_ReadMemEx(0x0000000A, 0x0002 Bytes, ..., Flags = 0x02000000)
T3AC0 1784:431.492   CPU_ReadMem(2 bytes @ 0x0000000A)
T3AC0 1784:432.064   Data:  AA AA
T3AC0 1784:432.097 - 0.651ms returns 0xFFFFFFFF
T3AC0 1784:432.125   JLINK_ReadMemEx(0x0000000C, 0x003C Bytes, ..., Flags = 0x02000000)
T3AC0 1784:432.159   CPU_ReadMem(60 bytes @ 0x0000000C)
T3AC0 1784:432.828   Data:  AA AA AA AA AA AA AA AA AA AA AA AA AA AA AA AA ...
T3AC0 1784:432.862 - 0.750ms returns 0xFFFFFFFF
T3AC0 1784:432.892   JLINK_ReadMemEx(0x0000000C, 0x003C Bytes, ..., Flags = 0x02000000)
T3AC0 1784:432.927   CPU_ReadMem(60 bytes @ 0x0000000C)
T3AC0 1784:433.579   Data:  AA AA AA AA AA AA AA AA AA AA AA AA AA AA AA AA ...
T3AC0 1784:433.612 - 0.731ms returns 0xFFFFFFFF
T3AC0 1784:433.639   JLINK_ReadMemEx(0x0000000C, 0x003C Bytes, ..., Flags = 0x02000000)
T3AC0 1784:433.674   CPU_ReadMem(60 bytes @ 0x0000000C)
T3AC0 1784:434.346   Data:  AA AA AA AA AA AA AA AA AA AA AA AA AA AA AA AA ...
T3AC0 1784:434.380 - 0.752ms returns 0xFFFFFFFF
T3AC0 1784:438.783   JLINK_ReadMemEx(0x00000000, 0x003C Bytes, ..., Flags = 0x02000000)
T3AC0 1784:438.848   CPU_ReadMem(60 bytes @ 0x00000000)
T3AC0 1784:439.626   Data:  AA AA AA AA AA AA AA AA AA AA AA AA AA AA AA AA ...
T3AC0 1784:439.664 - 0.893ms returns 0xFFFFFFFF
T3AC0 1784:439.700   JLINK_ReadMemEx(0x00000004, 0x003C Bytes, ..., Flags = 0x02000000)
T3AC0 1784:439.739   CPU_ReadMem(60 bytes @ 0x00000004)
T3AC0 1784:440.460   Data:  AA AA AA AA AA AA AA AA AA AA AA AA AA AA AA AA ...
T3AC0 1784:440.561 - 0.872ms returns 0xFFFFFFFF
T3AC0 1784:440.593   JLINK_ReadMemEx(0x00000004, 0x003C Bytes, ..., Flags = 0x02000000)
T3AC0 1784:440.629   CPU_ReadMem(60 bytes @ 0x00000004)
T3AC0 1784:441.372   Data:  AA AA AA AA AA AA AA AA AA AA AA AA AA AA AA AA ...
T3AC0 1784:441.414 - 0.835ms returns 0xFFFFFFFF
T3AC0 1784:441.452   JLINK_ReadMemEx(0x00000004, 0x003C Bytes, ..., Flags = 0x02000000)
T3AC0 1784:441.489   CPU_ReadMem(60 bytes @ 0x00000004)
T3AC0 1784:442.200   Data:  AA AA AA AA AA AA AA AA AA AA AA AA AA AA AA AA ...
T3AC0 1784:442.235 - 0.794ms returns 0xFFFFFFFF
T3AC0 1784:442.264   JLINK_ReadMemEx(0x00000004, 0x003C Bytes, ..., Flags = 0x02000000)
T3AC0 1784:442.299   CPU_ReadMem(60 bytes @ 0x00000004)
T3AC0 1784:443.013   Data:  AA AA AA AA AA AA AA AA AA AA AA AA AA AA AA AA ...
T3AC0 1784:443.047 - 0.793ms returns 0xFFFFFFFF
T3AC0 1784:443.078   JLINK_ReadMemEx(0x00000004, 0x003C Bytes, ..., Flags = 0x02000000)
T3AC0 1784:443.113   CPU_ReadMem(60 bytes @ 0x00000004)
T3AC0 1784:443.861   Data:  AA AA AA AA AA AA AA AA AA AA AA AA AA AA AA AA ...
T3AC0 1784:443.895 - 0.828ms returns 0xFFFFFFFF
T3AC0 1784:443.921   JLINK_ReadMemEx(0x00000004, 0x003C Bytes, ..., Flags = 0x02000000)
T3AC0 1784:443.956   CPU_ReadMem(60 bytes @ 0x00000004)
T3AC0 1784:444.660   Data:  AA AA AA AA AA AA AA AA AA AA AA AA AA AA AA AA ...
T3AC0 1784:444.694 - 0.783ms returns 0xFFFFFFFF
T3AC0 1784:444.721   JLINK_ReadMemEx(0x00000008, 0x003C Bytes, ..., Flags = 0x02000000)
T3AC0 1784:444.756   CPU_ReadMem(60 bytes @ 0x00000008)
T3AC0 1784:445.407   Data:  AA AA AA AA AA AA AA AA AA AA AA AA AA AA AA AA ...
T3AC0 1784:445.441 - 0.730ms returns 0xFFFFFFFF
T3AC0 1784:445.471   JLINK_ReadMemEx(0x00000008, 0x003C Bytes, ..., Flags = 0x02000000)
T3AC0 1784:445.507   CPU_ReadMem(60 bytes @ 0x00000008)
T3AC0 1784:446.168   Data:  AA AA AA AA AA AA AA AA AA AA AA AA AA AA AA AA ...
T3AC0 1784:446.202 - 0.742ms returns 0xFFFFFFFF
T3AC0 1784:446.229   JLINK_ReadMemEx(0x00000008, 0x003C Bytes, ..., Flags = 0x02000000)
T3AC0 1784:446.263   CPU_ReadMem(60 bytes @ 0x00000008)
T3AC0 1784:446.925   Data:  AA AA AA AA AA AA AA AA AA AA AA AA AA AA AA AA ...
T3AC0 1784:446.966 - 0.748ms returns 0xFFFFFFFF
T3AC0 1784:446.993   JLINK_ReadMemEx(0x00000008, 0x003C Bytes, ..., Flags = 0x02000000)
T3AC0 1784:447.028   CPU_ReadMem(60 bytes @ 0x00000008)
T3AC0 1784:447.701   Data:  AA AA AA AA AA AA AA AA AA AA AA AA AA AA AA AA ...
T3AC0 1784:447.736 - 0.753ms returns 0xFFFFFFFF
T3AC0 1784:447.765   JLINK_ReadMemEx(0x00000008, 0x003C Bytes, ..., Flags = 0x02000000)
T3AC0 1784:447.800   CPU_ReadMem(60 bytes @ 0x00000008)
T3AC0 1784:448.451   Data:  AA AA AA AA AA AA AA AA AA AA AA AA AA AA AA AA ...
T3AC0 1784:448.485 - 0.730ms returns 0xFFFFFFFF
T3AC0 1784:448.511   JLINK_ReadMemEx(0x00000008, 0x003C Bytes, ..., Flags = 0x02000000)
T3AC0 1784:448.547   CPU_ReadMem(60 bytes @ 0x00000008)
T3AC0 1784:449.199   Data:  AA AA AA AA AA AA AA AA AA AA AA AA AA AA AA AA ...
T3AC0 1784:449.233 - 0.732ms returns 0xFFFFFFFF
T3AC0 1784:449.260   JLINK_ReadMemEx(0x0000000A, 0x0002 Bytes, ..., Flags = 0x02000000)
T3AC0 1784:449.297   CPU_ReadMem(2 bytes @ 0x0000000A)
T3AC0 1784:449.862   Data:  AA AA
T3AC0 1784:449.896 - 0.646ms returns 0xFFFFFFFF
T3AC0 1784:450.110   JLINK_ReadMemEx(0x0000000A, 0x0002 Bytes, ..., Flags = 0x02000000)
T3AC0 1784:450.152   CPU_ReadMem(2 bytes @ 0x0000000A)
T3AC0 1784:450.712   Data:  AA AA
T3AC0 1784:450.746 - 0.647ms returns 0xFFFFFFFF
T3AC0 1784:450.773   JLINK_ReadMemEx(0x0000000A, 0x0002 Bytes, ..., Flags = 0x02000000)
T3AC0 1784:450.808   CPU_ReadMem(2 bytes @ 0x0000000A)
T3AC0 1784:451.355   Data:  AA AA
T3AC0 1784:451.391 - 0.629ms returns 0xFFFFFFFF
T3AC0 1784:451.419   JLINK_ReadMemEx(0x0000000C, 0x003C Bytes, ..., Flags = 0x02000000)
T3AC0 1784:451.453   CPU_ReadMem(60 bytes @ 0x0000000C)
T3AC0 1784:452.115   Data:  AA AA AA AA AA AA AA AA AA AA AA AA AA AA AA AA ...
T3AC0 1784:452.149 - 0.741ms returns 0xFFFFFFFF
T3AC0 1784:452.177   JLINK_ReadMemEx(0x0000000C, 0x003C Bytes, ..., Flags = 0x02000000)
T3AC0 1784:452.212   CPU_ReadMem(60 bytes @ 0x0000000C)
T3AC0 1784:452.899   Data:  AA AA AA AA AA AA AA AA AA AA AA AA AA AA AA AA ...
T3AC0 1784:452.932 - 0.765ms returns 0xFFFFFFFF
T3AC0 1784:452.959   JLINK_ReadMemEx(0x0000000C, 0x003C Bytes, ..., Flags = 0x02000000)
T3AC0 1784:452.996   CPU_ReadMem(60 bytes @ 0x0000000C)
T3AC0 1784:453.657   Data:  AA AA AA AA AA AA AA AA AA AA AA AA AA AA AA AA ...
T3AC0 1784:453.690 - 0.742ms returns 0xFFFFFFFF
T3AC0 1784:465.270   JLINK_ReadMemEx(0x00000000, 0x003C Bytes, ..., Flags = 0x02000000)
T3AC0 1784:465.338   CPU_ReadMem(60 bytes @ 0x00000000)
T3AC0 1784:466.141   Data:  AA AA AA AA AA AA AA AA AA AA AA AA AA AA AA AA ...
T3AC0 1784:466.183 - 0.925ms returns 0xFFFFFFFF
T3AC0 1784:466.221   JLINK_ReadMemEx(0x00000004, 0x003C Bytes, ..., Flags = 0x02000000)
T3AC0 1784:466.259   CPU_ReadMem(60 bytes @ 0x00000004)
T3AC0 1784:466.972   Data:  AA AA AA AA AA AA AA AA AA AA AA AA AA AA AA AA ...
T3AC0 1784:467.021 - 0.811ms returns 0xFFFFFFFF
T3AC0 1784:467.058   JLINK_ReadMemEx(0x00000004, 0x003C Bytes, ..., Flags = 0x02000000)
T3AC0 1784:467.096   CPU_ReadMem(60 bytes @ 0x00000004)
T3AC0 1784:467.807   Data:  AA AA AA AA AA AA AA AA AA AA AA AA AA AA AA AA ...
T3AC0 1784:467.843 - 0.796ms returns 0xFFFFFFFF
T3AC0 1784:467.873   JLINK_ReadMemEx(0x00000004, 0x003C Bytes, ..., Flags = 0x02000000)
T3AC0 1784:467.910   CPU_ReadMem(60 bytes @ 0x00000004)
T3AC0 1784:468.635   Data:  AA AA AA AA AA AA AA AA AA AA AA AA AA AA AA AA ...
T3AC0 1784:468.680 - 0.818ms returns 0xFFFFFFFF
T3AC0 1784:468.713   JLINK_ReadMemEx(0x00000004, 0x003C Bytes, ..., Flags = 0x02000000)
T3AC0 1784:468.755   CPU_ReadMem(60 bytes @ 0x00000004)
T3AC0 1784:469.495   Data:  AA AA AA AA AA AA AA AA AA AA AA AA AA AA AA AA ...
T3AC0 1784:469.546 - 0.845ms returns 0xFFFFFFFF
T3AC0 1784:469.583   JLINK_ReadMemEx(0x00000004, 0x003C Bytes, ..., Flags = 0x02000000)
T3AC0 1784:469.620   CPU_ReadMem(60 bytes @ 0x00000004)
T3AC0 1784:470.338   Data:  AA AA AA AA AA AA AA AA AA AA AA AA AA AA AA AA ...
T3AC0 1784:470.387 - 0.815ms returns 0xFFFFFFFF
T3AC0 1784:470.425   JLINK_ReadMemEx(0x00000004, 0x003C Bytes, ..., Flags = 0x02000000)
T3AC0 1784:470.469   CPU_ReadMem(60 bytes @ 0x00000004)
T3AC0 1784:471.211   Data:  AA AA AA AA AA AA AA AA AA AA AA AA AA AA AA AA ...
T3AC0 1784:471.256 - 0.846ms returns 0xFFFFFFFF
T3AC0 1784:471.295   JLINK_ReadMemEx(0x00000008, 0x003C Bytes, ..., Flags = 0x02000000)
T3AC0 1784:471.334   CPU_ReadMem(60 bytes @ 0x00000008)
T3AC0 1784:472.018   Data:  AA AA AA AA AA AA AA AA AA AA AA AA AA AA AA AA ...
T3AC0 1784:472.063 - 0.779ms returns 0xFFFFFFFF
T3AC0 1784:472.280   JLINK_ReadMemEx(0x00000008, 0x003C Bytes, ..., Flags = 0x02000000)
T3AC0 1784:472.324   CPU_ReadMem(60 bytes @ 0x00000008)
T3AC0 1784:472.995   Data:  AA AA AA AA AA AA AA AA AA AA AA AA AA AA AA AA ...
T3AC0 1784:473.036 - 0.768ms returns 0xFFFFFFFF
T3AC0 1784:473.069   JLINK_ReadMemEx(0x00000008, 0x003C Bytes, ..., Flags = 0x02000000)
T3AC0 1784:473.108   CPU_ReadMem(60 bytes @ 0x00000008)
T3AC0 1784:473.896   Data:  AA AA AA AA AA AA AA AA AA AA AA AA AA AA AA AA ...
T3AC0 1784:473.951 - 0.893ms returns 0xFFFFFFFF
T3AC0 1784:473.987   JLINK_ReadMemEx(0x00000008, 0x003C Bytes, ..., Flags = 0x02000000)
T3AC0 1784:474.027   CPU_ReadMem(60 bytes @ 0x00000008)
T3AC0 1784:474.856   Data:  AA AA AA AA AA AA AA AA AA AA AA AA AA AA AA AA ...
T3AC0 1784:474.908 - 0.932ms returns 0xFFFFFFFF
T3AC0 1784:474.951   JLINK_ReadMemEx(0x00000008, 0x003C Bytes, ..., Flags = 0x02000000)
T3AC0 1784:474.992   CPU_ReadMem(60 bytes @ 0x00000008)
T3AC0 1784:475.667   Data:  AA AA AA AA AA AA AA AA AA AA AA AA AA AA AA AA ...
T3AC0 1784:475.714 - 0.778ms returns 0xFFFFFFFF
T3AC0 1784:475.754   JLINK_ReadMemEx(0x00000008, 0x003C Bytes, ..., Flags = 0x02000000)
T3AC0 1784:475.794   CPU_ReadMem(60 bytes @ 0x00000008)
T3AC0 1784:476.460   Data:  AA AA AA AA AA AA AA AA AA AA AA AA AA AA AA AA ...
T3AC0 1784:476.501 - 0.759ms returns 0xFFFFFFFF
T3AC0 1784:515.165   JLINK_ReadMemEx(0x00000000, 0x003C Bytes, ..., Flags = 0x02000000)
T3AC0 1784:515.234   CPU_ReadMem(60 bytes @ 0x00000000)
T3AC0 1784:516.027   Data:  AA AA AA AA AA AA AA AA AA AA AA AA AA AA AA AA ...
T3AC0 1784:516.062 - 0.908ms returns 0xFFFFFFFF
T3AC0 1784:516.291   JLINK_ReadMemEx(0x00000004, 0x003C Bytes, ..., Flags = 0x02000000)
T3AC0 1784:516.335   CPU_ReadMem(60 bytes @ 0x00000004)
T3AC0 1784:517.085   Data:  AA AA AA AA AA AA AA AA AA AA AA AA AA AA AA AA ...
T3AC0 1784:517.120 - 0.840ms returns 0xFFFFFFFF
T3AC0 1784:517.150   JLINK_ReadMemEx(0x00000004, 0x003C Bytes, ..., Flags = 0x02000000)
T3AC0 1784:517.186   CPU_ReadMem(60 bytes @ 0x00000004)
T3AC0 1784:517.905   Data:  AA AA AA AA AA AA AA AA AA AA AA AA AA AA AA AA ...
T3AC0 1784:517.939 - 0.800ms returns 0xFFFFFFFF
T3AC0 1784:517.966   JLINK_ReadMemEx(0x00000004, 0x003C Bytes, ..., Flags = 0x02000000)
T3AC0 1784:518.002   CPU_ReadMem(60 bytes @ 0x00000004)
T3AC0 1784:518.730   Data:  AA AA AA AA AA AA AA AA AA AA AA AA AA AA AA AA ...
T3AC0 1784:518.764 - 0.809ms returns 0xFFFFFFFF
T3AC0 1784:518.793   JLINK_ReadMemEx(0x00000004, 0x003C Bytes, ..., Flags = 0x02000000)
T3AC0 1784:518.830   CPU_ReadMem(60 bytes @ 0x00000004)
T3AC0 1784:519.543   Data:  AA AA AA AA AA AA AA AA AA AA AA AA AA AA AA AA ...
T3AC0 1784:519.577 - 0.795ms returns 0xFFFFFFFF
T3AC0 1784:519.606   JLINK_ReadMemEx(0x00000004, 0x003C Bytes, ..., Flags = 0x02000000)
T3AC0 1784:519.641   CPU_ReadMem(60 bytes @ 0x00000004)
T3AC0 1784:520.355   Data:  AA AA AA AA AA AA AA AA AA AA AA AA AA AA AA AA ...
T3AC0 1784:520.389 - 0.794ms returns 0xFFFFFFFF
T3AC0 1784:520.415   JLINK_ReadMemEx(0x00000004, 0x003C Bytes, ..., Flags = 0x02000000)
T3AC0 1784:520.450   CPU_ReadMem(60 bytes @ 0x00000004)
T3AC0 1784:521.167   Data:  AA AA AA AA AA AA AA AA AA AA AA AA AA AA AA AA ...
T3AC0 1784:521.202 - 0.797ms returns 0xFFFFFFFF
T3AC0 1784:521.229   JLINK_ReadMemEx(0x00000008, 0x003C Bytes, ..., Flags = 0x02000000)
T3AC0 1784:521.264   CPU_ReadMem(60 bytes @ 0x00000008)
T3AC0 1784:521.936   Data:  AA AA AA AA AA AA AA AA AA AA AA AA AA AA AA AA ...
T3AC0 1784:521.977 - 0.758ms returns 0xFFFFFFFF
T3AC0 1784:522.006   JLINK_ReadMemEx(0x00000008, 0x003C Bytes, ..., Flags = 0x02000000)
T3AC0 1784:522.040   CPU_ReadMem(60 bytes @ 0x00000008)
T3AC0 1784:522.709   Data:  AA AA AA AA AA AA AA AA AA AA AA AA AA AA AA AA ...
T3AC0 1784:522.743 - 0.748ms returns 0xFFFFFFFF
T3AC0 1784:522.770   JLINK_ReadMemEx(0x00000008, 0x003C Bytes, ..., Flags = 0x02000000)
T3AC0 1784:522.807   CPU_ReadMem(60 bytes @ 0x00000008)
T3AC0 1784:523.481   Data:  AA AA AA AA AA AA AA AA AA AA AA AA AA AA AA AA ...
T3AC0 1784:523.515 - 0.756ms returns 0xFFFFFFFF
T3AC0 1784:523.542   JLINK_ReadMemEx(0x00000008, 0x003C Bytes, ..., Flags = 0x02000000)
T3AC0 1784:523.577   CPU_ReadMem(60 bytes @ 0x00000008)
T3AC0 1784:524.273   Data:  AA AA AA AA AA AA AA AA AA AA AA AA AA AA AA AA ...
T3AC0 1784:524.316 - 0.785ms returns 0xFFFFFFFF
T3AC0 1784:524.353   JLINK_ReadMemEx(0x00000008, 0x003C Bytes, ..., Flags = 0x02000000)
T3AC0 1784:524.396   CPU_ReadMem(60 bytes @ 0x00000008)
T3AC0 1784:525.121   Data:  AA AA AA AA AA AA AA AA AA AA AA AA AA AA AA AA ...
T3AC0 1784:525.166 - 0.824ms returns 0xFFFFFFFF
T3AC0 1784:525.198   JLINK_ReadMemEx(0x00000008, 0x003C Bytes, ..., Flags = 0x02000000)
T3AC0 1784:525.236   CPU_ReadMem(60 bytes @ 0x00000008)
T3AC0 1784:525.919   Data:  AA AA AA AA AA AA AA AA AA AA AA AA AA AA AA AA ...
T3AC0 1784:525.956 - 0.769ms returns 0xFFFFFFFF
T3AC0 1784:525.985   JLINK_ReadMemEx(0x0000000A, 0x0002 Bytes, ..., Flags = 0x02000000)
T3AC0 1784:526.020   CPU_ReadMem(2 bytes @ 0x0000000A)
T3AC0 1784:526.578   Data:  AA AA
T3AC0 1784:526.612 - 0.638ms returns 0xFFFFFFFF
T3AC0 1784:526.845   JLINK_ReadMemEx(0x0000000A, 0x0002 Bytes, ..., Flags = 0x02000000)
T3AC0 1784:526.887   CPU_ReadMem(2 bytes @ 0x0000000A)
T3AC0 1784:527.476   Data:  AA AA
T3AC0 1784:527.511 - 0.677ms returns 0xFFFFFFFF
T3AC0 1784:527.538   JLINK_ReadMemEx(0x0000000A, 0x0002 Bytes, ..., Flags = 0x02000000)
T3AC0 1784:527.573   CPU_ReadMem(2 bytes @ 0x0000000A)
T3AC0 1784:528.157   Data:  AA AA
T3AC0 1784:528.191 - 0.664ms returns 0xFFFFFFFF
T3AC0 1784:528.218   JLINK_ReadMemEx(0x0000000C, 0x003C Bytes, ..., Flags = 0x02000000)
T3AC0 1784:528.253   CPU_ReadMem(60 bytes @ 0x0000000C)
T3AC0 1784:528.918   Data:  AA AA AA AA AA AA AA AA AA AA AA AA AA AA AA AA ...
T3AC0 1784:528.955 - 0.748ms returns 0xFFFFFFFF
T3AC0 1784:528.984   JLINK_ReadMemEx(0x0000000C, 0x003C Bytes, ..., Flags = 0x02000000)
T3AC0 1784:529.020   CPU_ReadMem(60 bytes @ 0x0000000C)
T3AC0 1784:529.689   Data:  AA AA AA AA AA AA AA AA AA AA AA AA AA AA AA AA ...
T3AC0 1784:529.722 - 0.748ms returns 0xFFFFFFFF
T3AC0 1784:529.749   JLINK_ReadMemEx(0x0000000C, 0x003C Bytes, ..., Flags = 0x02000000)
T3AC0 1784:529.783   CPU_ReadMem(60 bytes @ 0x0000000C)
T3AC0 1784:530.456   Data:  AA AA AA AA AA AA AA AA AA AA AA AA AA AA AA AA ...
T3AC0 1784:530.491 - 0.753ms returns 0xFFFFFFFF
T3AC0 1784:793.375 JLINK_ReadReg(R0)
T3AC0 1784:793.955 - 0.595ms returns 0xA05F0003
T3AC0 1784:793.984 JLINK_ReadReg(R1)
T3AC0 1784:794.006 - 0.032ms returns 0xE000EDF0
T3AC0 1784:794.029 JLINK_ReadReg(R2)
T3AC0 1784:794.050 - 0.032ms returns 0xA05F0003
T3AC0 1784:794.076 JLINK_ReadReg(R3)
T3AC0 1784:794.101 - 0.035ms returns 0x00800001
T3AC0 1784:794.123 JLINK_ReadReg(R4)
T3AC0 1784:794.144 - 0.031ms returns 0x400401A0
T3AC0 1784:794.167 JLINK_ReadReg(R5)
T3AC0 1784:794.188 - 0.031ms returns 0x10008009
T3AC0 1784:794.211 JLINK_ReadReg(R6)
T3AC0 1784:794.232 - 0.031ms returns 0x10008008
T3AC0 1784:794.255 JLINK_ReadReg(R7)
T3AC0 1784:794.276 - 0.031ms returns 0x10004000
T3AC0 1784:794.299 JLINK_ReadReg(R8)
T3AC0 1784:794.320 - 0.033ms returns 0x00000100
T3AC0 1784:794.344 JLINK_ReadReg(R9)
T3AC0 1784:794.365 - 0.031ms returns 0x00000000
T3AC0 1784:794.389 JLINK_ReadReg(R10)
T3AC0 1784:794.411 - 0.033ms returns 0x00000000
T3AC0 1784:794.434 JLINK_ReadReg(R11)
T3AC0 1784:794.455 - 0.031ms returns 0x00000000
T3AC0 1784:794.478 JLINK_ReadReg(R12)
T3AC0 1784:794.499 - 0.031ms returns 0xAEC90860
T3AC0 1784:794.522 JLINK_ReadReg(R13 (SP))
T3AC0 1784:794.550 - 0.038ms returns 0x10003FC0
T3AC0 1784:794.573 JLINK_ReadReg(R14)
T3AC0 1784:794.594 - 0.031ms returns 0x00003937
T3AC0 1784:794.617 JLINK_ReadReg(R15 (PC))
T3AC0 1784:794.638 - 0.032ms returns 0x000008D0
T3AC0 1784:794.661 JLINK_ReadReg(XPSR)
T3AC0 1784:794.682 - 0.031ms returns 0x81000000
T3AC0 1784:794.705 JLINK_ReadReg(MSP)
T3AC0 1784:794.728 - 0.033ms returns 0x10003FC0
T3AC0 1784:794.750 JLINK_ReadReg(PSP)
T3AC0 1784:794.773 - 0.033ms returns 0x00000000
T3AC0 1784:794.796 JLINK_ReadReg(CFBP)
T3AC0 1784:794.817 - 0.031ms returns 0x04000000
T3AC0 1784:794.840 JLINK_ReadReg(FPSCR)
T3AC0 1784:804.443 - 9.623ms returns 0x02000000
T3AC0 1784:804.481 JLINK_ReadReg(FPS0)
T3AC0 1784:804.504 - 0.034ms returns 0x00000000
T3AC0 1784:804.529 JLINK_ReadReg(FPS1)
T3AC0 1784:804.550 - 0.031ms returns 0x00000000
T3AC0 1784:804.574 JLINK_ReadReg(FPS2)
T3AC0 1784:804.595 - 0.031ms returns 0x00000000
T3AC0 1784:804.621 JLINK_ReadReg(FPS3)
T3AC0 1784:804.644 - 0.033ms returns 0x00000000
T3AC0 1784:804.668 JLINK_ReadReg(FPS4)
T3AC0 1784:804.689 - 0.031ms returns 0x00000000
T3AC0 1784:804.713 JLINK_ReadReg(FPS5)
T3AC0 1784:804.735 - 0.031ms returns 0x00000000
T3AC0 1784:804.759 JLINK_ReadReg(FPS6)
T3AC0 1784:804.780 - 0.031ms returns 0x00000000
T3AC0 1784:804.804 JLINK_ReadReg(FPS7)
T3AC0 1784:804.825 - 0.031ms returns 0x00000000
T3AC0 1784:804.849 JLINK_ReadReg(FPS8)
T3AC0 1784:804.870 - 0.031ms returns 0x00000000
T3AC0 1784:804.894 JLINK_ReadReg(FPS9)
T3AC0 1784:804.915 - 0.031ms returns 0x00000000
T3AC0 1784:804.940 JLINK_ReadReg(FPS10)
T3AC0 1784:804.963 - 0.033ms returns 0x00000000
T3AC0 1784:804.987 JLINK_ReadReg(FPS11)
T3AC0 1784:805.008 - 0.031ms returns 0x00000000
T3AC0 1784:805.032 JLINK_ReadReg(FPS12)
T3AC0 1784:805.053 - 0.031ms returns 0x00000000
T3AC0 1784:805.077 JLINK_ReadReg(FPS13)
T3AC0 1784:805.098 - 0.031ms returns 0x00000000
T3AC0 1784:805.122 JLINK_ReadReg(FPS14)
T3AC0 1784:805.143 - 0.031ms returns 0x00000000
T3AC0 1784:805.168 JLINK_ReadReg(FPS15)
T3AC0 1784:805.189 - 0.031ms returns 0x00000000
T3AC0 1784:805.213 JLINK_ReadReg(FPS16)
T3AC0 1784:805.234 - 0.031ms returns 0x00000000
T3AC0 1784:805.258 JLINK_ReadReg(FPS17)
T3AC0 1784:805.281 - 0.033ms returns 0x00000000
T3AC0 1784:805.305 JLINK_ReadReg(FPS18)
T3AC0 1784:805.328 - 0.033ms returns 0x00000000
T3AC0 1784:805.352 JLINK_ReadReg(FPS19)
T3AC0 1784:805.373 - 0.031ms returns 0x00000000
T3AC0 1784:805.397 JLINK_ReadReg(FPS20)
T3AC0 1784:805.418 - 0.031ms returns 0x00000000
T3AC0 1784:805.442 JLINK_ReadReg(FPS21)
T3AC0 1784:805.463 - 0.031ms returns 0x00000000
T3AC0 1784:805.487 JLINK_ReadReg(FPS22)
T3AC0 1784:805.508 - 0.031ms returns 0x00000000
T3AC0 1784:805.532 JLINK_ReadReg(FPS23)
T3AC0 1784:805.553 - 0.031ms returns 0x00000000
T3AC0 1784:805.578 JLINK_ReadReg(FPS24)
T3AC0 1784:805.601 - 0.033ms returns 0x00000000
T3AC0 1784:805.625 JLINK_ReadReg(FPS25)
T3AC0 1784:805.646 - 0.031ms returns 0x00000000
T3AC0 1784:805.670 JLINK_ReadReg(FPS26)
T3AC0 1784:805.691 - 0.031ms returns 0x00000000
T3AC0 1784:805.715 JLINK_ReadReg(FPS27)
T3AC0 1784:805.736 - 0.031ms returns 0x00000000
T3AC0 1784:805.760 JLINK_ReadReg(FPS28)
T3AC0 1784:805.782 - 0.032ms returns 0x00000000
T3AC0 1784:805.806 JLINK_ReadReg(FPS29)
T3AC0 1784:805.827 - 0.031ms returns 0x00000000
T3AC0 1784:805.851 JLINK_ReadReg(FPS30)
T3AC0 1784:805.872 - 0.031ms returns 0x00000000
T3AC0 1784:805.897 JLINK_ReadReg(FPS31)
T3AC0 1784:805.920 - 0.033ms returns 0x00000000
T3AC0 1785:060.420 JLINK_WriteReg(R13 (SP), 0x10006968)
T3AC0 1785:060.476 - 0.067ms returns 0x00
T3AC0 1785:060.503 JLINK_ReadReg(R0)
T3AC0 1785:060.524 - 0.032ms returns 0xA05F0003
T3AC0 1785:060.548 JLINK_ReadReg(R1)
T3AC0 1785:060.569 - 0.031ms returns 0xE000EDF0
T3AC0 1785:060.594 JLINK_ReadReg(R2)
T3AC0 1785:060.619 - 0.035ms returns 0xA05F0003
T3AC0 1785:060.642 JLINK_ReadReg(R3)
T3AC0 1785:060.663 - 0.031ms returns 0x00800001
T3AC0 1785:060.685 JLINK_ReadReg(R4)
T3AC0 1785:060.706 - 0.031ms returns 0x400401A0
T3AC0 1785:060.734 JLINK_ReadReg(R5)
T3AC0 1785:060.757 - 0.034ms returns 0x10008009
T3AC0 1785:060.780 JLINK_ReadReg(R6)
T3AC0 1785:060.801 - 0.031ms returns 0x10008008
T3AC0 1785:060.823 JLINK_ReadReg(R7)
T3AC0 1785:060.844 - 0.031ms returns 0x10004000
T3AC0 1785:060.867 JLINK_ReadReg(R8)
T3AC0 1785:060.888 - 0.031ms returns 0x00000100
T3AC0 1785:060.911 JLINK_ReadReg(R9)
T3AC0 1785:060.934 - 0.033ms returns 0x00000000
T3AC0 1785:060.957 JLINK_ReadReg(R10)
T3AC0 1785:060.978 - 0.031ms returns 0x00000000
T3AC0 1785:061.001 JLINK_ReadReg(R11)
T3AC0 1785:061.022 - 0.031ms returns 0x00000000
T3AC0 1785:061.044 JLINK_ReadReg(R12)
T3AC0 1785:061.065 - 0.031ms returns 0xAEC90860
T3AC0 1785:061.088 JLINK_ReadReg(R13 (SP))
T3AC0 1785:061.109 - 0.031ms returns 0x10006968
T3AC0 1785:061.132 JLINK_ReadReg(R14)
T3AC0 1785:061.153 - 0.031ms returns 0x00003937
T3AC0 1785:061.175 JLINK_ReadReg(R15 (PC))
T3AC0 1785:061.198 - 0.033ms returns 0x000008D0
T3AC0 1785:061.222 JLINK_ReadReg(XPSR)
T3AC0 1785:061.244 - 0.033ms returns 0x81000000
T3AC0 1785:061.267 JLINK_ReadReg(MSP)
T3AC0 1785:061.288 - 0.031ms returns 0x10006968
T3AC0 1785:061.311 JLINK_ReadReg(PSP)
T3AC0 1785:061.332 - 0.031ms returns 0x00000000
T3AC0 1785:061.355 JLINK_ReadReg(CFBP)
T3AC0 1785:061.376 - 0.031ms returns 0x04000000
T3AC0 1785:061.399 JLINK_ReadReg(FPSCR)
T3AC0 1785:061.420 - 0.031ms returns 0x02000000
T3AC0 1785:061.442 JLINK_ReadReg(FPS0)
T3AC0 1785:061.463 - 0.031ms returns 0x00000000
T3AC0 1785:061.486 JLINK_ReadReg(FPS1)
T3AC0 1785:061.507 - 0.031ms returns 0x00000000
T3AC0 1785:061.530 JLINK_ReadReg(FPS2)
T3AC0 1785:061.553 - 0.033ms returns 0x00000000
T3AC0 1785:061.576 JLINK_ReadReg(FPS3)
T3AC0 1785:061.596 - 0.031ms returns 0x00000000
T3AC0 1785:061.619 JLINK_ReadReg(FPS4)
T3AC0 1785:061.641 - 0.033ms returns 0x00000000
T3AC0 1785:061.664 JLINK_ReadReg(FPS5)
T3AC0 1785:061.685 - 0.031ms returns 0x00000000
T3AC0 1785:061.708 JLINK_ReadReg(FPS6)
T3AC0 1785:061.729 - 0.031ms returns 0x00000000
T3AC0 1785:061.751 JLINK_ReadReg(FPS7)
T3AC0 1785:061.772 - 0.031ms returns 0x00000000
T3AC0 1785:061.795 JLINK_ReadReg(FPS8)
T3AC0 1785:061.816 - 0.031ms returns 0x00000000
T3AC0 1785:061.839 JLINK_ReadReg(FPS9)
T3AC0 1785:061.862 - 0.033ms returns 0x00000000
T3AC0 1785:061.884 JLINK_ReadReg(FPS10)
T3AC0 1785:061.905 - 0.031ms returns 0x00000000
T3AC0 1785:061.928 JLINK_ReadReg(FPS11)
T3AC0 1785:061.949 - 0.031ms returns 0x00000000
T3AC0 1785:061.972 JLINK_ReadReg(FPS12)
T3AC0 1785:061.993 - 0.031ms returns 0x00000000
T3AC0 1785:062.015 JLINK_ReadReg(FPS13)
T3AC0 1785:062.036 - 0.031ms returns 0x00000000
T3AC0 1785:062.059 JLINK_ReadReg(FPS14)
T3AC0 1785:062.080 - 0.031ms returns 0x00000000
T3AC0 1785:062.103 JLINK_ReadReg(FPS15)
T3AC0 1785:062.123 - 0.031ms returns 0x00000000
T3AC0 1785:062.147 JLINK_ReadReg(FPS16)
T3AC0 1785:062.170 - 0.034ms returns 0x00000000
T3AC0 1785:062.193 JLINK_ReadReg(FPS17)
T3AC0 1785:062.214 - 0.031ms returns 0x00000000
T3AC0 1785:062.237 JLINK_ReadReg(FPS18)
T3AC0 1785:062.258 - 0.031ms returns 0x00000000
T3AC0 1785:062.281 JLINK_ReadReg(FPS19)
T3AC0 1785:062.302 - 0.031ms returns 0x00000000
T3AC0 1785:062.324 JLINK_ReadReg(FPS20)
T3AC0 1785:062.345 - 0.031ms returns 0x00000000
T3AC0 1785:062.368 JLINK_ReadReg(FPS21)
T3AC0 1785:062.389 - 0.031ms returns 0x00000000
T3AC0 1785:062.412 JLINK_ReadReg(FPS22)
T3AC0 1785:062.433 - 0.031ms returns 0x00000000
T3AC0 1785:062.456 JLINK_ReadReg(FPS23)
T3AC0 1785:062.478 - 0.033ms returns 0x00000000
T3AC0 1785:062.501 JLINK_ReadReg(FPS24)
T3AC0 1785:062.522 - 0.031ms returns 0x00000000
T3AC0 1785:062.545 JLINK_ReadReg(FPS25)
T3AC0 1785:062.566 - 0.031ms returns 0x00000000
T3AC0 1785:062.588 JLINK_ReadReg(FPS26)
T3AC0 1785:062.609 - 0.031ms returns 0x00000000
T3AC0 1785:062.632 JLINK_ReadReg(FPS27)
T3AC0 1785:062.653 - 0.031ms returns 0x00000000
T3AC0 1785:062.676 JLINK_ReadReg(FPS28)
T3AC0 1785:062.697 - 0.031ms returns 0x00000000
T3AC0 1785:062.719 JLINK_ReadReg(FPS29)
T3AC0 1785:062.740 - 0.031ms returns 0x00000000
T3AC0 1785:062.765 JLINK_ReadReg(FPS30)
T3AC0 1785:062.788 - 0.034ms returns 0x00000000
T3AC0 1785:062.811 JLINK_ReadReg(FPS31)
T3AC0 1785:062.832 - 0.031ms returns 0x00000000
T3AC0 1785:062.858 JLINK_WriteReg(R15 (PC), 0x0000C100)
T3AC0 1785:062.880 - 0.032ms returns 0x00
T3AC0 1785:062.905 JLINK_ReadReg(R0)
T3AC0 1785:062.926 - 0.031ms returns 0xA05F0003
T3AC0 1785:062.949 JLINK_ReadReg(R1)
T3AC0 1785:062.970 - 0.031ms returns 0xE000EDF0
T3AC0 1785:062.992 JLINK_ReadReg(R2)
T3AC0 1785:063.013 - 0.032ms returns 0xA05F0003
T3AC0 1785:063.037 JLINK_ReadReg(R3)
T3AC0 1785:063.058 - 0.031ms returns 0x00800001
T3AC0 1785:063.081 JLINK_ReadReg(R4)
T3AC0 1785:063.103 - 0.032ms returns 0x400401A0
T3AC0 1785:063.126 JLINK_ReadReg(R5)
T3AC0 1785:063.147 - 0.031ms returns 0x10008009
T3AC0 1785:063.171 JLINK_ReadReg(R6)
T3AC0 1785:063.233 - 0.074ms returns 0x10008008
T3AC0 1785:063.260 JLINK_ReadReg(R7)
T3AC0 1785:063.281 - 0.032ms returns 0x10004000
T3AC0 1785:063.305 JLINK_ReadReg(R8)
T3AC0 1785:063.399 - 0.105ms returns 0x00000100
T3AC0 1785:063.423 JLINK_ReadReg(R9)
T3AC0 1785:063.444 - 0.031ms returns 0x00000000
T3AC0 1785:063.467 JLINK_ReadReg(R10)
T3AC0 1785:063.489 - 0.033ms returns 0x00000000
T3AC0 1785:063.513 JLINK_ReadReg(R11)
T3AC0 1785:063.536 - 0.033ms returns 0x00000000
T3AC0 1785:063.559 JLINK_ReadReg(R12)
T3AC0 1785:063.580 - 0.031ms returns 0xAEC90860
T3AC0 1785:063.602 JLINK_ReadReg(R13 (SP))
T3AC0 1785:063.624 - 0.031ms returns 0x10006968
T3AC0 1785:063.646 JLINK_ReadReg(R14)
T3AC0 1785:063.667 - 0.031ms returns 0x00003937
T3AC0 1785:063.690 JLINK_ReadReg(R15 (PC))
T3AC0 1785:063.711 - 0.031ms returns 0x0000C100
T3AC0 1785:063.734 JLINK_ReadReg(XPSR)
T3AC0 1785:063.755 - 0.031ms returns 0x81000000
T3AC0 1785:063.777 JLINK_ReadReg(MSP)
T3AC0 1785:063.798 - 0.031ms returns 0x10006968
T3AC0 1785:063.822 JLINK_ReadReg(PSP)
T3AC0 1785:063.845 - 0.033ms returns 0x00000000
T3AC0 1785:063.868 JLINK_ReadReg(CFBP)
T3AC0 1785:063.889 - 0.031ms returns 0x04000000
T3AC0 1785:063.911 JLINK_ReadReg(FPSCR)
T3AC0 1785:063.932 - 0.031ms returns 0x02000000
T3AC0 1785:063.955 JLINK_ReadReg(FPS0)
T3AC0 1785:063.976 - 0.031ms returns 0x00000000
T3AC0 1785:063.999 JLINK_ReadReg(FPS1)
T3AC0 1785:064.020 - 0.031ms returns 0x00000000
T3AC0 1785:064.042 JLINK_ReadReg(FPS2)
T3AC0 1785:064.063 - 0.031ms returns 0x00000000
T3AC0 1785:064.086 JLINK_ReadReg(FPS3)
T3AC0 1785:064.107 - 0.031ms returns 0x00000000
T3AC0 1785:064.130 JLINK_ReadReg(FPS4)
T3AC0 1785:064.153 - 0.033ms returns 0x00000000
T3AC0 1785:064.187 JLINK_ReadReg(FPS5)
T3AC0 1785:064.208 - 0.031ms returns 0x00000000
T3AC0 1785:064.231 JLINK_ReadReg(FPS6)
T3AC0 1785:064.252 - 0.031ms returns 0x00000000
T3AC0 1785:064.275 JLINK_ReadReg(FPS7)
T3AC0 1785:064.296 - 0.031ms returns 0x00000000
T3AC0 1785:064.319 JLINK_ReadReg(FPS8)
T3AC0 1785:064.340 - 0.031ms returns 0x00000000
T3AC0 1785:064.363 JLINK_ReadReg(FPS9)
T3AC0 1785:064.383 - 0.031ms returns 0x00000000
T3AC0 1785:064.406 JLINK_ReadReg(FPS10)
T3AC0 1785:064.427 - 0.031ms returns 0x00000000
T3AC0 1785:064.450 JLINK_ReadReg(FPS11)
T3AC0 1785:064.473 - 0.033ms returns 0x00000000
T3AC0 1785:064.496 JLINK_ReadReg(FPS12)
T3AC0 1785:064.517 - 0.032ms returns 0x00000000
T3AC0 1785:064.540 JLINK_ReadReg(FPS13)
T3AC0 1785:064.561 - 0.031ms returns 0x00000000
T3AC0 1785:064.584 JLINK_ReadReg(FPS14)
T3AC0 1785:064.605 - 0.031ms returns 0x00000000
T3AC0 1785:064.627 JLINK_ReadReg(FPS15)
T3AC0 1785:064.648 - 0.031ms returns 0x00000000
T3AC0 1785:064.671 JLINK_ReadReg(FPS16)
T3AC0 1785:064.692 - 0.031ms returns 0x00000000
T3AC0 1785:064.715 JLINK_ReadReg(FPS17)
T3AC0 1785:064.736 - 0.031ms returns 0x00000000
T3AC0 1785:064.759 JLINK_ReadReg(FPS18)
T3AC0 1785:064.781 - 0.033ms returns 0x00000000
T3AC0 1785:064.804 JLINK_ReadReg(FPS19)
T3AC0 1785:064.825 - 0.031ms returns 0x00000000
T3AC0 1785:064.848 JLINK_ReadReg(FPS20)
T3AC0 1785:064.869 - 0.032ms returns 0x00000000
T3AC0 1785:064.892 JLINK_ReadReg(FPS21)
T3AC0 1785:064.913 - 0.034ms returns 0x00000000
T3AC0 1785:064.940 JLINK_ReadReg(FPS22)
T3AC0 1785:064.961 - 0.031ms returns 0x00000000
T3AC0 1785:064.984 JLINK_ReadReg(FPS23)
T3AC0 1785:065.005 - 0.031ms returns 0x00000000
T3AC0 1785:065.028 JLINK_ReadReg(FPS24)
T3AC0 1785:065.049 - 0.031ms returns 0x00000000
T3AC0 1785:065.072 JLINK_ReadReg(FPS25)
T3AC0 1785:065.095 - 0.033ms returns 0x00000000
T3AC0 1785:065.117 JLINK_ReadReg(FPS26)
T3AC0 1785:065.138 - 0.031ms returns 0x00000000
T3AC0 1785:065.161 JLINK_ReadReg(FPS27)
T3AC0 1785:065.184 - 0.033ms returns 0x00000000
T3AC0 1785:065.207 JLINK_ReadReg(FPS28)
T3AC0 1785:065.235 - 0.038ms returns 0x00000000
T3AC0 1785:065.258 JLINK_ReadReg(FPS29)
T3AC0 1785:065.279 - 0.031ms returns 0x00000000
T3AC0 1785:065.301 JLINK_ReadReg(FPS30)
T3AC0 1785:065.322 - 0.031ms returns 0x00000000
T3AC0 1785:065.345 JLINK_ReadReg(FPS31)
T3AC0 1785:065.366 - 0.031ms returns 0x00000000
T3AC0 1785:065.392 JLINK_WriteMemEx(0xE000ED08, 0x0004 Bytes, ..., Flags = 0x02000000)
T3AC0 1785:065.415   Data:  00 C0 00 00
T3AC0 1785:065.458   CPU_WriteMem(4 bytes @ 0xE000ED08)
T3AC0 1785:065.982 - 0.608ms returns 0x04
T3E24 1785:091.218   JLINK_ReadMemEx(0x0000C100, 0x0002 Bytes, ..., Flags = 0x02000000)
T3E24 1785:091.295   CPU_ReadMem(64 bytes @ 0x0000C100)
T3E24 1785:092.635    -- Updating C cache (64 bytes @ 0x0000C100)
T3E24 1785:092.675    -- Read from C cache (2 bytes @ 0x0000C100)
T3E24 1785:092.713   Data:  4E F6
T3E24 1785:092.744 - 1.544ms returns 0x02
T3E24 1785:092.779   JLINK_SetBPEx(Addr = 0x0001073C, Type = 0xFFFFFFF2)
T3E24 1785:092.814 - 0.045ms returns 0x00000001
T3E24 1785:092.849 JLINK_SWO_Control(JLINKARM_SWO_CMD_GET_NUM_BYTES, ...)
T3E24 1785:092.871 - 0.033ms returns 0x00
T3E24 1785:092.895 JLINK_Go()
T3E24 1785:092.933   CPU_WriteMem(4 bytes @ 0xE0002000)
T3E24 1785:093.572   CPU_WriteMem(4 bytes @ 0xE0001000)
T3E24 1785:094.564   CPU_ReadMem(4 bytes @ 0xE0001000)
T3E24 1785:095.093   CPU_WriteMem(4 bytes @ 0xE0000E00)
T3E24 1785:095.138   CPU_WriteMem(4 bytes @ 0xE0000E40)
T3E24 1785:095.171   CPU_WriteMem(4 bytes @ 0xE0000E80)
T3E24 1785:095.202   CPU_WriteMem(4 bytes @ 0xE0002008)
T3E24 1785:095.233   CPU_WriteMem(4 bytes @ 0xE000200C)
T3E24 1785:095.264   CPU_WriteMem(4 bytes @ 0xE0002010)
T3E24 1785:095.296   CPU_WriteMem(4 bytes @ 0xE0002014)
T3E24 1785:095.327   CPU_WriteMem(4 bytes @ 0xE0002018)
T3E24 1785:095.358   CPU_WriteMem(4 bytes @ 0xE000201C)
T3E24 1785:095.389   CPU_WriteMem(4 bytes @ 0xE0040010)
T3E24 1785:095.423   CPU_WriteMem(4 bytes @ 0xE00400F0)
T3E24 1785:095.454   CPU_WriteMem(4 bytes @ 0xE0040304)
T3E24 1785:100.367   CPU_WriteMem(4 bytes @ 0xE0001004)
T3E24 1785:102.583 - 9.711ms
T3E24 1785:203.115 JLINK_SWO_Read(..., Offset = 0x00, NumBytes = 0x400000)
T3E24 1785:203.153   Data: 
T3E24 1785:203.186 - 0.082ms NumBytesRead = 0x00

T3E24 1785:203.210 JLINK_SWO_Control(JLINKARM_SWO_CMD_FLUSH, ...)
T3E24 1785:203.232 - 0.033ms returns 0x00
T3E24 1785:203.263 JLINK_IsHalted()
T3E24 1785:209.309 - 6.070ms returns TRUE
T3E24 1785:209.356 JLINK_Halt()
T3E24 1785:209.379 - 0.033ms returns 0x00
T3E24 1785:209.402 JLINK_IsHalted()
T3E24 1785:209.423 - 0.031ms returns TRUE
T3E24 1785:209.446 JLINK_IsHalted()
T3E24 1785:209.471 - 0.035ms returns TRUE
T3E24 1785:209.494 JLINK_IsHalted()
T3E24 1785:209.514 - 0.031ms returns TRUE
T3E24 1785:209.540 JLINK_ReadReg(R15 (PC))
T3E24 1785:209.563 - 0.034ms returns 0x0001073C
T3E24 1785:209.587 JLINK_ReadReg(XPSR)
T3E24 1785:209.608 - 0.032ms returns 0x21000000
T3E24 1785:209.632 JLINK_SWO_Read(..., Offset = 0x00, NumBytes = 0x400000)
T3E24 1785:209.654   Data: 
T3E24 1785:209.685 - 0.063ms NumBytesRead = 0x00

T3E24 1785:209.708 JLINK_SWO_Control(JLINKARM_SWO_CMD_FLUSH, ...)
T3E24 1785:209.730 - 0.032ms returns 0x00
T3E24 1785:209.763 JLINK_ClrBPEx(BPHandle = 0x00000001)
T3E24 1785:209.787 - 0.036ms returns 0x00
T3E24 1785:209.816 JLINK_ReadMemU32(0xE000ED30, 0x0001 Items, ...)
T3E24 1785:209.844   CPU_ReadMem(4 bytes @ 0xE000ED30)
T3E24 1785:210.399   Data:  02 00 00 00
T3E24 1785:210.441 - 0.636ms returns 1
T3E24 1785:210.469 JLINK_ReadMemU32(0xE0001028, 0x0001 Items, ...)
T3E24 1785:210.495   CPU_ReadMem(4 bytes @ 0xE0001028)
T3E24 1785:211.003   Data:  00 00 00 00
T3E24 1785:211.038   Debug reg: DWT_FUNC[0]
T3E24 1785:211.068 - 0.610ms returns 1
T3E24 1785:211.100 JLINK_ReadMemU32(0xE0001038, 0x0001 Items, ...)
T3E24 1785:211.126   CPU_ReadMem(4 bytes @ 0xE0001038)
T3E24 1785:211.647   Data:  00 02 00 00
T3E24 1785:211.682   Debug reg: DWT_FUNC[1]
T3E24 1785:211.713 - 0.623ms returns 1
T3E24 1785:211.739 JLINK_ReadMemU32(0xE0001048, 0x0001 Items, ...)
T3E24 1785:211.764   CPU_ReadMem(4 bytes @ 0xE0001048)
T3E24 1785:212.270   Data:  00 00 00 00
T3E24 1785:212.305   Debug reg: DWT_FUNC[2]
T3E24 1785:212.336 - 0.607ms returns 1
